
T0C1C 000:059 SEGGER J-Link V4.76d Log File (0001ms, 0059ms total)
T0C1C 000:059 DLL Compiled: Sep 13 2013 16:35:06 (0001ms, 0059ms total)
T0C1C 000:059 Logging started @ 2017-03-28 10:11 (0001ms, 0059ms total)
T0C1C 000:060 JLINK_SetWarnOutHandler(...) (0000ms, 0059ms total)
T0C1C 000:060 JLINK_OpenEx(...)
Firmware: J-Link ARM-OB STM32 compiled Aug 22 2012 19:52:04
Hardware: V7.00
S/N: 20090928
Feature(s): RDI,FlashDL,FlashBP,JFlash,GDBFull  returns O.K. (0019ms, 0078ms total)
T0C1C 000:079 JLINK_SetErrorOutHandler(...) (0000ms, 0078ms total)
T0C1C 000:079 JLINK_ExecCommand("ProjectFile = "D:\迅雷下载\专业版匹配SDK10代码与教程（更新中）\第3部分：高级BLE从机实验\BLE实验5：蓝牙遥控器\BLE实验5：蓝牙遥控器\examples\ble_peripheral\ble_app_uart\pca10028\s110\arm4\JLinkSettings.ini"", ...)
                JLINK_AddMirrorAreaEx(Addr = 0x00000000, Size = 0x00000000) (0000ms, 0000ms total)
              Device "UNSPECIFIED" selected (0 KB flash, 0 KB RAM).  returns 0x00 (0007ms, 0085ms total)
T0C1C 000:093 JLINK_ExecCommand("Device = nRF51422_xxAC", ...)
                JLINK_AddMirrorAreaEx(Addr = 0x00000000, Size = 0x00000000) (0000ms, 0000ms total)
              Device "UNSPECIFIED" selected (0 KB flash, 0 KB RAM).  returns 0x00 (0007ms, 0092ms total)
T0C1C 000:100 JLINK_ExecCommand("DisableConnectionTimeout", ...)  returns 0x01 (0000ms, 0092ms total)
T0C1C 000:100 JLINK_GetHardwareVersion()  returns 0x11170 (0000ms, 0092ms total)
T0C1C 000:100 JLINK_GetDLLVersion()  returns 47604 (0000ms, 0092ms total)
T0C1C 000:100 JLINK_GetFirmwareString(...) (0000ms, 0092ms total)
T0C1C 000:121 JLINK_GetDLLVersion()  returns 47604 (0000ms, 0092ms total)
T0C1C 000:121 JLINK_GetCompileDateTime() (0000ms, 0092ms total)
T0C1C 000:126 JLINK_GetFirmwareString(...) (0000ms, 0092ms total)
T0C1C 000:130 JLINK_GetHardwareVersion()  returns 0x11170 (0000ms, 0092ms total)
T0C1C 000:140 JLINK_TIF_Select(JLINKARM_TIF_SWD)  returns 0x00 (0004ms, 0096ms total)
T0C1C 000:144 JLINK_SetSpeed(2000) (0000ms, 0096ms total)
T0C1C 000:144 JLINK_GetId() >0x108 TIF>Found SWD-DP with ID 0x0BB11477 >0x0D TIF> >0x21 TIF> >0x0D TIF> >0x28 TIF> >0x0D TIF> >0x28 TIF> >0x0D TIF> >0x21 TIF> >0x0D TIF> >0x28 TIF> >0x0D TIF> >0x21 TIF> >0x0D TIF> >0x21 TIF> >0x0D TIF> >0x21 TIF> >0x0D TIF> >0x28 TIF> >0x0D TIF> >0x28 TIF> >0x0D TIF> >0x28 TIF> >0x0D TIF> >0x21 TIF> >0x0D TIF> >0x21 TIF> >0x0D TIF> >0x21 TIF> >0x0D TIF> >0x28 TIF> >0x0D TIF> >0x28 TIF> >0x0D TIF> >0x21 TIF> >0x0D TIF> >0x28 TIF> >0x0D TIF> >0x28 TIF> >0x0D TIF>
 >0x28 TIF> >0x0D TIF> >0x21 TIF> >0x0D TIF> >0x21 TIF> >0x0D TIF> >0x28 TIF> >0x0D TIF> >0x21 TIF> >0x0D TIF> >0x21 TIF>Found Cortex-M0 r0p0, Little endian. -- CPU_WriteMem(4 bytes @ 0xE0002000) -- CPU_ReadMem(4 bytes @ 0xE000EDF0) -- CPU_ReadMem(4 bytes @ 0xE0002000)FPUnit: 4 code (BP) slots and 0 literal slots -- CPU_ReadMem(4 bytes @ 0xE000EDFC) -- CPU_ReadMem(4 bytes @ 0xE0001000) -- CPU_WriteMem(4 bytes @ 0xE0001000) -- CPU_ReadMem(4 bytes @ 0xE00FF018) >0x0D TIF> >0x21 TIF>  returns 0x0BB11477
 (0060ms, 0156ms total)
T0C1C 000:204 JLINK_GetDeviceFamily()  returns 6 (0000ms, 0156ms total)
T0C1C 000:207 JLINK_ReadMem (0xE00FFFF0, 0x0010 Bytes, ...) -- CPU is running -- CPU_ReadMem(16 bytes @ 0xE00FFFF0) -- Data:  0D 00 00 00 10 00 00 00 05 00 00 00 B1 00 00 00  returns 0x00 (0002ms, 0158ms total)
T0C1C 000:209 JLINK_ReadMem (0xE00FFFD0, 0x0020 Bytes, ...) -- CPU is running -- CPU_ReadMem(32 bytes @ 0xE00FFFD0) -- Data:  04 00 00 00 00 00 00 00 00 00 00 00 00 00 00 00 ...  returns 0x00 (0001ms, 0159ms total)
T0C1C 000:210 JLINK_ReadMem (0xE00FF000, 0x0018 Bytes, ...) -- CPU is running -- CPU_ReadMem(24 bytes @ 0xE00FF000) -- Data:  03 F0 F0 FF 03 20 F0 FF 03 30 F0 FF 00 00 00 00 ...  returns 0x00 (0002ms, 0161ms total)
T0C1C 000:212 JLINK_ReadMemU32(0xE000ED00, 0x0001 Items, ...) -- CPU is running -- CPU_ReadMem(4 bytes @ 0xE000ED00) -- Data:  00 C2 0C 41  returns 0x01 (0001ms, 0162ms total)
T0C1C 000:213 JLINK_SetResetType(JLINKARM_RESET_TYPE_NORMAL)  returns JLINKARM_RESET_TYPE_NORMAL (0000ms, 0162ms total)
T0C1C 000:213 JLINK_Reset() -- CPU is running -- CPU_WriteMem(4 bytes @ 0xE000EDF0) -- CPU is running -- CPU_WriteMem(4 bytes @ 0xE000EDFC) >0x35 TIF> -- CPU is running -- CPU_WriteMem(4 bytes @ 0xE000ED0C) -- CPU is running -- CPU_ReadMem(4 bytes @ 0xE000EDF0) -- CPU is running -- CPU_ReadMem(4 bytes @ 0xE000EDF0) -- CPU is running -- CPU_WriteMem(4 bytes @ 0xE000EDF0) -- CPU is running -- CPU_WriteMem(4 bytes @ 0xE000EDFC) -- CPU is running -- CPU_ReadMem(4 bytes @ 0xE000EDF0)
 -- CPU_WriteMem(4 bytes @ 0xE0002000) (0024ms, 0186ms total)
T0C1C 000:237 JLINK_Halt()  returns 0x00 (0000ms, 0186ms total)
T0C1C 000:237 JLINK_IsHalted()  returns TRUE (0000ms, 0186ms total)
T0C1C 000:237 JLINK_ReadMemU32(0xE000EDF0, 0x0001 Items, ...) -- CPU_ReadMem(4 bytes @ 0xE000EDF0) -- Data:  03 00 03 00  returns 0x01 (0002ms, 0188ms total)
T0C1C 000:239 JLINK_WriteU32(0xE000EDF0, 0xA05F0003) -- CPU_WriteMem(4 bytes @ 0xE000EDF0)  returns 0x00 (0001ms, 0189ms total)
T0C1C 000:240 JLINK_WriteU32(0xE000EDFC, 0x01000000) -- CPU_WriteMem(4 bytes @ 0xE000EDFC)  returns 0x00 (0001ms, 0190ms total)
T0C1C 000:251 JLINK_GetHWStatus(...)  returns 0x00 (0002ms, 0192ms total)
T0C1C 000:260 JLINK_GetNumBPUnits(Type = 0xFFFFFF00)  returns 0x04 (0000ms, 0192ms total)
T0C1C 000:260 JLINK_GetNumBPUnits(Type = 0xF0)  returns 0x2000 (0000ms, 0192ms total)
T0C1C 000:260 JLINK_GetNumWPUnits()  returns 0x02 (0000ms, 0192ms total)
T0C1C 000:266 JLINK_GetSpeed()  returns 0x7D0 (0000ms, 0192ms total)
T0C1C 000:270 JLINK_ReadMemU32(0xE000E004, 0x0001 Items, ...) -- CPU_ReadMem(4 bytes @ 0xE000E004) -- Data:  00 00 00 00  returns 0x01 (0002ms, 0194ms total)
T0C1C 000:272 JLINK_Halt()  returns 0x00 (0000ms, 0194ms total)
T0C1C 000:272 JLINK_IsHalted()  returns TRUE (0000ms, 0194ms total)
T0C1C 000:275 JLINK_WriteMem(0x20000000, 0x0258 Bytes, ...) -- Data:  00 BE 0A E0 0D 78 2D 06 68 40 08 24 40 00 00 D3 ... -- CPU_WriteMem(600 bytes @ 0x20000000)  returns 0x258 (0008ms, 0202ms total)
T0C1C 000:283 JLINK_WriteReg(R0, 0x00000000)  returns 0x00 (0000ms, 0202ms total)
T0C1C 000:283 JLINK_WriteReg(R1, 0x00F42400)  returns 0x00 (0000ms, 0202ms total)
T0C1C 000:283 JLINK_WriteReg(R2, 0x00000001)  returns 0x00 (0000ms, 0202ms total)
T0C1C 000:283 JLINK_WriteReg(R3, 0x00000000)  returns 0x00 (0000ms, 0202ms total)
T0C1C 000:283 JLINK_WriteReg(R4, 0x00000000)  returns 0x00 (0000ms, 0202ms total)
T0C1C 000:283 JLINK_WriteReg(R5, 0x00000000)  returns 0x00 (0000ms, 0202ms total)
T0C1C 000:283 JLINK_WriteReg(R6, 0x00000000)  returns 0x00 (0000ms, 0202ms total)
T0C1C 000:283 JLINK_WriteReg(R7, 0x00000000)  returns 0x00 (0000ms, 0202ms total)
T0C1C 000:283 JLINK_WriteReg(R8, 0x00000000)  returns 0x00 (0001ms, 0203ms total)
T0C1C 000:284 JLINK_WriteReg(R9, 0x20000254)  returns 0x00 (0000ms, 0203ms total)
T0C1C 000:284 JLINK_WriteReg(R10, 0x00000000)  returns 0x00 (0000ms, 0203ms total)
T0C1C 000:284 JLINK_WriteReg(R11, 0x00000000)  returns 0x00 (0000ms, 0203ms total)
T0C1C 000:284 JLINK_WriteReg(R12, 0x00000000)  returns 0x00 (0000ms, 0203ms total)
T0C1C 000:284 JLINK_WriteReg(R13 (SP), 0x20000800)  returns 0x00 (0000ms, 0203ms total)
T0C1C 000:284 JLINK_WriteReg(R14, 0x20000001)  returns 0x00 (0000ms, 0203ms total)
T0C1C 000:284 JLINK_WriteReg(R15 (PC), 0x20000028)  returns 0x00 (0000ms, 0203ms total)
T0C1C 000:284 JLINK_WriteReg(XPSR, 0x01000000)  returns 0x00 (0000ms, 0203ms total)
T0C1C 000:284 JLINK_WriteReg(MSP, 0x20000800)  returns 0x00 (0000ms, 0203ms total)
T0C1C 000:284 JLINK_WriteReg(PSP, 0x20000800)  returns 0x00 (0000ms, 0203ms total)
T0C1C 000:284 JLINK_WriteReg(CFBP, 0x00000000)  returns 0x00 (0000ms, 0203ms total)
T0C1C 000:284 JLINK_SetBPEx(Addr = 0x20000000, Type = 0xFFFFFFF2) -- CPU_ReadMem(4 bytes @ 0x20000000) -- CPU_WriteMem(4 bytes @ 0x20000000) -- CPU_ReadMem(4 bytes @ 0x20000000) -- CPU_WriteMem(4 bytes @ 0x20000000) -- CPU_ReadMem(2 bytes @ 0x20000000)  returns 0x00000001 (0006ms, 0209ms total)
T0C1C 000:290 JLINK_Go() -- CPU_WriteMem(2 bytes @ 0x20000000) -- CPU_WriteMem(4 bytes @ 0xE0002008) -- CPU_WriteMem(4 bytes @ 0xE000200C) -- CPU_WriteMem(4 bytes @ 0xE0002010) -- CPU_WriteMem(4 bytes @ 0xE0002014) (0009ms, 0218ms total)
T0C1C 000:299 JLINK_IsHalted() -- CPU_ReadMem(2 bytes @ 0x20000000)  returns TRUE (0005ms, 0223ms total)
T0C1C 000:304 JLINK_ReadReg(R15 (PC))  returns 0x20000000 (0000ms, 0218ms total)
T0C1C 000:304 JLINK_ClrBPEx(BPHandle = 0x00000001)  returns 0x00 (0000ms, 0218ms total)
T0C1C 000:304 JLINK_ReadReg(R0)  returns 0x00000000 (0000ms, 0218ms total)
T0C1C 000:305 JLINK_WriteReg(R0, 0x00018000)  returns 0x00 (0000ms, 0218ms total)
T0C1C 000:305 JLINK_WriteReg(R1, 0x00000400)  returns 0x00 (0000ms, 0218ms total)
T0C1C 000:305 JLINK_WriteReg(R2, 0x000000FF)  returns 0x00 (0000ms, 0218ms total)
T0C1C 000:305 JLINK_WriteReg(R3, 0x00000000)  returns 0x00 (0000ms, 0218ms total)
T0C1C 000:305 JLINK_WriteReg(R4, 0x00000000)  returns 0x00 (0000ms, 0218ms total)
T0C1C 000:305 JLINK_WriteReg(R5, 0x00000000)  returns 0x00 (0000ms, 0218ms total)
T0C1C 000:305 JLINK_WriteReg(R6, 0x00000000)  returns 0x00 (0000ms, 0218ms total)
T0C1C 000:305 JLINK_WriteReg(R7, 0x00000000)  returns 0x00 (0000ms, 0218ms total)
T0C1C 000:305 JLINK_WriteReg(R8, 0x00000000)  returns 0x00 (0000ms, 0218ms total)
T0C1C 000:305 JLINK_WriteReg(R9, 0x20000254)  returns 0x00 (0000ms, 0218ms total)
T0C1C 000:305 JLINK_WriteReg(R10, 0x00000000)  returns 0x00 (0000ms, 0218ms total)
T0C1C 000:305 JLINK_WriteReg(R11, 0x00000000)  returns 0x00 (0000ms, 0218ms total)
T0C1C 000:305 JLINK_WriteReg(R12, 0x00000000)  returns 0x00 (0000ms, 0218ms total)
T0C1C 000:305 JLINK_WriteReg(R13 (SP), 0x20000800)  returns 0x00 (0000ms, 0218ms total)
T0C1C 000:305 JLINK_WriteReg(R14, 0x20000001)  returns 0x00 (0001ms, 0219ms total)
T0C1C 000:306 JLINK_WriteReg(R15 (PC), 0x200001F2)  returns 0x00 (0000ms, 0219ms total)
T0C1C 000:306 JLINK_WriteReg(XPSR, 0x01000000)  returns 0x00 (0000ms, 0219ms total)
T0C1C 000:306 JLINK_WriteReg(MSP, 0x20000800)  returns 0x00 (0000ms, 0219ms total)
T0C1C 000:306 JLINK_WriteReg(PSP, 0x20000800)  returns 0x00 (0000ms, 0219ms total)
T0C1C 000:306 JLINK_WriteReg(CFBP, 0x00000000)  returns 0x00 (0000ms, 0219ms total)
T0C1C 000:306 JLINK_SetBPEx(Addr = 0x20000000, Type = 0xFFFFFFF2)  returns 0x00000002 (0000ms, 0219ms total)
T0C1C 000:306 JLINK_Go() (0003ms, 0222ms total)
T0C1C 000:309 JLINK_IsHalted() -- CPU_ReadMem(2 bytes @ 0x20000000)  returns TRUE (0006ms, 0228ms total)
T0C1C 000:315 JLINK_ReadReg(R15 (PC))  returns 0x20000000 (0000ms, 0222ms total)
T0C1C 000:315 JLINK_ClrBPEx(BPHandle = 0x00000002)  returns 0x00 (0000ms, 0222ms total)
T0C1C 000:315 JLINK_ReadReg(R0)  returns 0x00000000 (0000ms, 0222ms total)
T0C1C 000:315 JLINK_WriteReg(R0, 0x00018400)  returns 0x00 (0001ms, 0223ms total)
T0C1C 000:316 JLINK_WriteReg(R1, 0x00000400)  returns 0x00 (0000ms, 0223ms total)
T0C1C 000:316 JLINK_WriteReg(R2, 0x000000FF)  returns 0x00 (0000ms, 0223ms total)
T0C1C 000:316 JLINK_WriteReg(R3, 0x00000000)  returns 0x00 (0000ms, 0223ms total)
T0C1C 000:316 JLINK_WriteReg(R4, 0x00000000)  returns 0x00 (0000ms, 0223ms total)
T0C1C 000:316 JLINK_WriteReg(R5, 0x00000000)  returns 0x00 (0000ms, 0223ms total)
T0C1C 000:316 JLINK_WriteReg(R6, 0x00000000)  returns 0x00 (0000ms, 0223ms total)
T0C1C 000:316 JLINK_WriteReg(R7, 0x00000000)  returns 0x00 (0000ms, 0223ms total)
T0C1C 000:316 JLINK_WriteReg(R8, 0x00000000)  returns 0x00 (0000ms, 0223ms total)
T0C1C 000:316 JLINK_WriteReg(R9, 0x20000254)  returns 0x00 (0000ms, 0223ms total)
T0C1C 000:316 JLINK_WriteReg(R10, 0x00000000)  returns 0x00 (0000ms, 0223ms total)
T0C1C 000:316 JLINK_WriteReg(R11, 0x00000000)  returns 0x00 (0000ms, 0223ms total)
T0C1C 000:316 JLINK_WriteReg(R12, 0x00000000)  returns 0x00 (0000ms, 0223ms total)
T0C1C 000:316 JLINK_WriteReg(R13 (SP), 0x20000800)  returns 0x00 (0000ms, 0223ms total)
T0C1C 000:316 JLINK_WriteReg(R14, 0x20000001)  returns 0x00 (0000ms, 0223ms total)
T0C1C 000:316 JLINK_WriteReg(R15 (PC), 0x200001F2)  returns 0x00 (0000ms, 0223ms total)
T0C1C 000:316 JLINK_WriteReg(XPSR, 0x01000000)  returns 0x00 (0000ms, 0223ms total)
T0C1C 000:316 JLINK_WriteReg(MSP, 0x20000800)  returns 0x00 (0000ms, 0223ms total)
T0C1C 000:316 JLINK_WriteReg(PSP, 0x20000800)  returns 0x00 (0000ms, 0223ms total)
T0C1C 000:316 JLINK_WriteReg(CFBP, 0x00000000)  returns 0x00 (0001ms, 0224ms total)
T0C1C 000:317 JLINK_SetBPEx(Addr = 0x20000000, Type = 0xFFFFFFF2)  returns 0x00000003 (0000ms, 0224ms total)
T0C1C 000:317 JLINK_Go() (0003ms, 0227ms total)
T0C1C 000:320 JLINK_IsHalted() -- CPU_ReadMem(2 bytes @ 0x20000000)  returns TRUE (0005ms, 0232ms total)
T0C1C 000:325 JLINK_ReadReg(R15 (PC))  returns 0x20000000 (0000ms, 0227ms total)
T0C1C 000:325 JLINK_ClrBPEx(BPHandle = 0x00000003)  returns 0x00 (0000ms, 0227ms total)
T0C1C 000:325 JLINK_ReadReg(R0)  returns 0x00000000 (0000ms, 0227ms total)
T0C1C 000:325 JLINK_WriteReg(R0, 0x00018800)  returns 0x00 (0001ms, 0228ms total)
T0C1C 000:326 JLINK_WriteReg(R1, 0x00000400)  returns 0x00 (0000ms, 0228ms total)
T0C1C 000:326 JLINK_WriteReg(R2, 0x000000FF)  returns 0x00 (0000ms, 0228ms total)
T0C1C 000:326 JLINK_WriteReg(R3, 0x00000000)  returns 0x00 (0000ms, 0228ms total)
T0C1C 000:326 JLINK_WriteReg(R4, 0x00000000)  returns 0x00 (0000ms, 0228ms total)
T0C1C 000:326 JLINK_WriteReg(R5, 0x00000000)  returns 0x00 (0000ms, 0228ms total)
T0C1C 000:326 JLINK_WriteReg(R6, 0x00000000)  returns 0x00 (0000ms, 0228ms total)
T0C1C 000:326 JLINK_WriteReg(R7, 0x00000000)  returns 0x00 (0000ms, 0228ms total)
T0C1C 000:326 JLINK_WriteReg(R8, 0x00000000)  returns 0x00 (0000ms, 0228ms total)
T0C1C 000:326 JLINK_WriteReg(R9, 0x20000254)  returns 0x00 (0000ms, 0228ms total)
T0C1C 000:326 JLINK_WriteReg(R10, 0x00000000)  returns 0x00 (0000ms, 0228ms total)
T0C1C 000:326 JLINK_WriteReg(R11, 0x00000000)  returns 0x00 (0000ms, 0228ms total)
T0C1C 000:326 JLINK_WriteReg(R12, 0x00000000)  returns 0x00 (0000ms, 0228ms total)
T0C1C 000:326 JLINK_WriteReg(R13 (SP), 0x20000800)  returns 0x00 (0000ms, 0228ms total)
T0C1C 000:326 JLINK_WriteReg(R14, 0x20000001)  returns 0x00 (0000ms, 0228ms total)
T0C1C 000:326 JLINK_WriteReg(R15 (PC), 0x200001F2)  returns 0x00 (0000ms, 0228ms total)
T0C1C 000:326 JLINK_WriteReg(XPSR, 0x01000000)  returns 0x00 (0001ms, 0229ms total)
T0C1C 000:327 JLINK_WriteReg(MSP, 0x20000800)  returns 0x00 (0000ms, 0229ms total)
T0C1C 000:327 JLINK_WriteReg(PSP, 0x20000800)  returns 0x00 (0000ms, 0229ms total)
T0C1C 000:327 JLINK_WriteReg(CFBP, 0x00000000)  returns 0x00 (0000ms, 0229ms total)
T0C1C 000:327 JLINK_SetBPEx(Addr = 0x20000000, Type = 0xFFFFFFF2)  returns 0x00000004 (0000ms, 0229ms total)
T0C1C 000:327 JLINK_Go() (0002ms, 0231ms total)
T0C1C 000:329 JLINK_IsHalted() -- CPU_ReadMem(2 bytes @ 0x20000000)  returns TRUE (0005ms, 0236ms total)
T0C1C 000:334 JLINK_ReadReg(R15 (PC))  returns 0x20000000 (0000ms, 0231ms total)
T0C1C 000:334 JLINK_ClrBPEx(BPHandle = 0x00000004)  returns 0x00 (0000ms, 0231ms total)
T0C1C 000:334 JLINK_ReadReg(R0)  returns 0x00000000 (0000ms, 0231ms total)
T0C1C 000:335 JLINK_WriteReg(R0, 0x00018C00)  returns 0x00 (0000ms, 0231ms total)
T0C1C 000:335 JLINK_WriteReg(R1, 0x00000400)  returns 0x00 (0000ms, 0231ms total)
T0C1C 000:335 JLINK_WriteReg(R2, 0x000000FF)  returns 0x00 (0000ms, 0231ms total)
T0C1C 000:335 JLINK_WriteReg(R3, 0x00000000)  returns 0x00 (0000ms, 0231ms total)
T0C1C 000:335 JLINK_WriteReg(R4, 0x00000000)  returns 0x00 (0000ms, 0231ms total)
T0C1C 000:335 JLINK_WriteReg(R5, 0x00000000)  returns 0x00 (0000ms, 0231ms total)
T0C1C 000:335 JLINK_WriteReg(R6, 0x00000000)  returns 0x00 (0000ms, 0231ms total)
T0C1C 000:335 JLINK_WriteReg(R7, 0x00000000)  returns 0x00 (0000ms, 0231ms total)
T0C1C 000:335 JLINK_WriteReg(R8, 0x00000000)  returns 0x00 (0000ms, 0231ms total)
T0C1C 000:335 JLINK_WriteReg(R9, 0x20000254)  returns 0x00 (0000ms, 0231ms total)
T0C1C 000:335 JLINK_WriteReg(R10, 0x00000000)  returns 0x00 (0001ms, 0232ms total)
T0C1C 000:336 JLINK_WriteReg(R11, 0x00000000)  returns 0x00 (0000ms, 0232ms total)
T0C1C 000:336 JLINK_WriteReg(R12, 0x00000000)  returns 0x00 (0000ms, 0232ms total)
T0C1C 000:336 JLINK_WriteReg(R13 (SP), 0x20000800)  returns 0x00 (0000ms, 0232ms total)
T0C1C 000:336 JLINK_WriteReg(R14, 0x20000001)  returns 0x00 (0000ms, 0232ms total)
T0C1C 000:336 JLINK_WriteReg(R15 (PC), 0x200001F2)  returns 0x00 (0000ms, 0232ms total)
T0C1C 000:336 JLINK_WriteReg(XPSR, 0x01000000)  returns 0x00 (0000ms, 0232ms total)
T0C1C 000:336 JLINK_WriteReg(MSP, 0x20000800)  returns 0x00 (0000ms, 0232ms total)
T0C1C 000:336 JLINK_WriteReg(PSP, 0x20000800)  returns 0x00 (0000ms, 0232ms total)
T0C1C 000:336 JLINK_WriteReg(CFBP, 0x00000000)  returns 0x00 (0000ms, 0232ms total)
T0C1C 000:336 JLINK_SetBPEx(Addr = 0x20000000, Type = 0xFFFFFFF2)  returns 0x00000005 (0000ms, 0232ms total)
T0C1C 000:336 JLINK_Go() (0004ms, 0236ms total)
T0C1C 000:340 JLINK_IsHalted() -- CPU_ReadMem(2 bytes @ 0x20000000)  returns TRUE (0005ms, 0241ms total)
T0C1C 000:345 JLINK_ReadReg(R15 (PC))  returns 0x20000000 (0000ms, 0236ms total)
T0C1C 000:345 JLINK_ClrBPEx(BPHandle = 0x00000005)  returns 0x00 (0000ms, 0236ms total)
T0C1C 000:345 JLINK_ReadReg(R0)  returns 0x00000000 (0000ms, 0236ms total)
T0C1C 000:345 JLINK_WriteReg(R0, 0x00019000)  returns 0x00 (0000ms, 0236ms total)
T0C1C 000:345 JLINK_WriteReg(R1, 0x00000400)  returns 0x00 (0001ms, 0237ms total)
T0C1C 000:346 JLINK_WriteReg(R2, 0x000000FF)  returns 0x00 (0000ms, 0237ms total)
T0C1C 000:346 JLINK_WriteReg(R3, 0x00000000)  returns 0x00 (0000ms, 0237ms total)
T0C1C 000:346 JLINK_WriteReg(R4, 0x00000000)  returns 0x00 (0000ms, 0237ms total)
T0C1C 000:346 JLINK_WriteReg(R5, 0x00000000)  returns 0x00 (0000ms, 0237ms total)
T0C1C 000:346 JLINK_WriteReg(R6, 0x00000000)  returns 0x00 (0000ms, 0237ms total)
T0C1C 000:346 JLINK_WriteReg(R7, 0x00000000)  returns 0x00 (0000ms, 0237ms total)
T0C1C 000:346 JLINK_WriteReg(R8, 0x00000000)  returns 0x00 (0000ms, 0237ms total)
T0C1C 000:346 JLINK_WriteReg(R9, 0x20000254)  returns 0x00 (0000ms, 0237ms total)
T0C1C 000:346 JLINK_WriteReg(R10, 0x00000000)  returns 0x00 (0000ms, 0237ms total)
T0C1C 000:346 JLINK_WriteReg(R11, 0x00000000)  returns 0x00 (0000ms, 0237ms total)
T0C1C 000:346 JLINK_WriteReg(R12, 0x00000000)  returns 0x00 (0000ms, 0237ms total)
T0C1C 000:346 JLINK_WriteReg(R13 (SP), 0x20000800)  returns 0x00 (0000ms, 0237ms total)
T0C1C 000:346 JLINK_WriteReg(R14, 0x20000001)  returns 0x00 (0000ms, 0237ms total)
T0C1C 000:346 JLINK_WriteReg(R15 (PC), 0x200001F2)  returns 0x00 (0000ms, 0237ms total)
T0C1C 000:346 JLINK_WriteReg(XPSR, 0x01000000)  returns 0x00 (0000ms, 0237ms total)
T0C1C 000:346 JLINK_WriteReg(MSP, 0x20000800)  returns 0x00 (0001ms, 0238ms total)
T0C1C 000:347 JLINK_WriteReg(PSP, 0x20000800)  returns 0x00 (0000ms, 0238ms total)
T0C1C 000:347 JLINK_WriteReg(CFBP, 0x00000000)  returns 0x00 (0000ms, 0238ms total)
T0C1C 000:347 JLINK_SetBPEx(Addr = 0x20000000, Type = 0xFFFFFFF2)  returns 0x00000006 (0000ms, 0238ms total)
T0C1C 000:347 JLINK_Go() (0002ms, 0240ms total)
T0C1C 000:349 JLINK_IsHalted() -- CPU_ReadMem(2 bytes @ 0x20000000)  returns TRUE (0006ms, 0246ms total)
T0C1C 000:355 JLINK_ReadReg(R15 (PC))  returns 0x20000000 (0000ms, 0240ms total)
T0C1C 000:355 JLINK_ClrBPEx(BPHandle = 0x00000006)  returns 0x00 (0000ms, 0240ms total)
T0C1C 000:355 JLINK_ReadReg(R0)  returns 0x00000000 (0000ms, 0240ms total)
T0C1C 000:356 JLINK_WriteReg(R0, 0x00019400)  returns 0x00 (0000ms, 0240ms total)
T0C1C 000:356 JLINK_WriteReg(R1, 0x00000400)  returns 0x00 (0000ms, 0240ms total)
T0C1C 000:356 JLINK_WriteReg(R2, 0x000000FF)  returns 0x00 (0000ms, 0240ms total)
T0C1C 000:356 JLINK_WriteReg(R3, 0x00000000)  returns 0x00 (0000ms, 0240ms total)
T0C1C 000:356 JLINK_WriteReg(R4, 0x00000000)  returns 0x00 (0000ms, 0240ms total)
T0C1C 000:356 JLINK_WriteReg(R5, 0x00000000)  returns 0x00 (0000ms, 0240ms total)
T0C1C 000:356 JLINK_WriteReg(R6, 0x00000000)  returns 0x00 (0000ms, 0240ms total)
T0C1C 000:356 JLINK_WriteReg(R7, 0x00000000)  returns 0x00 (0000ms, 0240ms total)
T0C1C 000:356 JLINK_WriteReg(R8, 0x00000000)  returns 0x00 (0001ms, 0241ms total)
T0C1C 000:357 JLINK_WriteReg(R9, 0x20000254)  returns 0x00 (0000ms, 0241ms total)
T0C1C 000:357 JLINK_WriteReg(R10, 0x00000000)  returns 0x00 (0000ms, 0241ms total)
T0C1C 000:357 JLINK_WriteReg(R11, 0x00000000)  returns 0x00 (0000ms, 0241ms total)
T0C1C 000:357 JLINK_WriteReg(R12, 0x00000000)  returns 0x00 (0000ms, 0241ms total)
T0C1C 000:357 JLINK_WriteReg(R13 (SP), 0x20000800)  returns 0x00 (0000ms, 0241ms total)
T0C1C 000:357 JLINK_WriteReg(R14, 0x20000001)  returns 0x00 (0000ms, 0241ms total)
T0C1C 000:357 JLINK_WriteReg(R15 (PC), 0x200001F2)  returns 0x00 (0000ms, 0241ms total)
T0C1C 000:357 JLINK_WriteReg(XPSR, 0x01000000)  returns 0x00 (0000ms, 0241ms total)
T0C1C 000:357 JLINK_WriteReg(MSP, 0x20000800)  returns 0x00 (0000ms, 0241ms total)
T0C1C 000:357 JLINK_WriteReg(PSP, 0x20000800)  returns 0x00 (0000ms, 0241ms total)
T0C1C 000:357 JLINK_WriteReg(CFBP, 0x00000000)  returns 0x00 (0000ms, 0241ms total)
T0C1C 000:357 JLINK_SetBPEx(Addr = 0x20000000, Type = 0xFFFFFFF2)  returns 0x00000007 (0000ms, 0241ms total)
T0C1C 000:357 JLINK_Go() (0004ms, 0245ms total)
T0C1C 000:361 JLINK_IsHalted() -- CPU_ReadMem(2 bytes @ 0x20000000)  returns TRUE (0005ms, 0250ms total)
T0C1C 000:366 JLINK_ReadReg(R15 (PC))  returns 0x20000000 (0000ms, 0245ms total)
T0C1C 000:366 JLINK_ClrBPEx(BPHandle = 0x00000007)  returns 0x00 (0000ms, 0245ms total)
T0C1C 000:366 JLINK_ReadReg(R0)  returns 0x00000000 (0000ms, 0245ms total)
T0C1C 000:367 JLINK_WriteReg(R0, 0x00019800)  returns 0x00 (0000ms, 0245ms total)
T0C1C 000:367 JLINK_WriteReg(R1, 0x00000400)  returns 0x00 (0000ms, 0245ms total)
T0C1C 000:367 JLINK_WriteReg(R2, 0x000000FF)  returns 0x00 (0000ms, 0245ms total)
T0C1C 000:367 JLINK_WriteReg(R3, 0x00000000)  returns 0x00 (0000ms, 0245ms total)
T0C1C 000:367 JLINK_WriteReg(R4, 0x00000000)  returns 0x00 (0000ms, 0245ms total)
T0C1C 000:367 JLINK_WriteReg(R5, 0x00000000)  returns 0x00 (0000ms, 0245ms total)
T0C1C 000:367 JLINK_WriteReg(R6, 0x00000000)  returns 0x00 (0000ms, 0245ms total)
T0C1C 000:367 JLINK_WriteReg(R7, 0x00000000)  returns 0x00 (0000ms, 0245ms total)
T0C1C 000:367 JLINK_WriteReg(R8, 0x00000000)  returns 0x00 (0000ms, 0245ms total)
T0C1C 000:367 JLINK_WriteReg(R9, 0x20000254)  returns 0x00 (0000ms, 0245ms total)
T0C1C 000:367 JLINK_WriteReg(R10, 0x00000000)  returns 0x00 (0000ms, 0245ms total)
T0C1C 000:367 JLINK_WriteReg(R11, 0x00000000)  returns 0x00 (0000ms, 0245ms total)
T0C1C 000:367 JLINK_WriteReg(R12, 0x00000000)  returns 0x00 (0000ms, 0245ms total)
T0C1C 000:367 JLINK_WriteReg(R13 (SP), 0x20000800)  returns 0x00 (0001ms, 0246ms total)
T0C1C 000:368 JLINK_WriteReg(R14, 0x20000001)  returns 0x00 (0000ms, 0246ms total)
T0C1C 000:368 JLINK_WriteReg(R15 (PC), 0x200001F2)  returns 0x00 (0000ms, 0246ms total)
T0C1C 000:368 JLINK_WriteReg(XPSR, 0x01000000)  returns 0x00 (0000ms, 0246ms total)
T0C1C 000:368 JLINK_WriteReg(MSP, 0x20000800)  returns 0x00 (0000ms, 0246ms total)
T0C1C 000:368 JLINK_WriteReg(PSP, 0x20000800)  returns 0x00 (0000ms, 0246ms total)
T0C1C 000:368 JLINK_WriteReg(CFBP, 0x00000000)  returns 0x00 (0000ms, 0246ms total)
T0C1C 000:368 JLINK_SetBPEx(Addr = 0x20000000, Type = 0xFFFFFFF2)  returns 0x00000008 (0000ms, 0246ms total)
T0C1C 000:368 JLINK_Go() (0003ms, 0249ms total)
T0C1C 000:371 JLINK_IsHalted() -- CPU_ReadMem(2 bytes @ 0x20000000)  returns TRUE (0006ms, 0255ms total)
T0C1C 000:377 JLINK_ReadReg(R15 (PC))  returns 0x20000000 (0000ms, 0249ms total)
T0C1C 000:377 JLINK_ClrBPEx(BPHandle = 0x00000008)  returns 0x00 (0000ms, 0249ms total)
T0C1C 000:377 JLINK_ReadReg(R0)  returns 0x00000000 (0000ms, 0249ms total)
T0C1C 000:377 JLINK_WriteReg(R0, 0x00019C00)  returns 0x00 (0000ms, 0249ms total)
T0C1C 000:377 JLINK_WriteReg(R1, 0x00000400)  returns 0x00 (0001ms, 0250ms total)
T0C1C 000:378 JLINK_WriteReg(R2, 0x000000FF)  returns 0x00 (0000ms, 0250ms total)
T0C1C 000:378 JLINK_WriteReg(R3, 0x00000000)  returns 0x00 (0000ms, 0250ms total)
T0C1C 000:378 JLINK_WriteReg(R4, 0x00000000)  returns 0x00 (0000ms, 0250ms total)
T0C1C 000:378 JLINK_WriteReg(R5, 0x00000000)  returns 0x00 (0000ms, 0250ms total)
T0C1C 000:378 JLINK_WriteReg(R6, 0x00000000)  returns 0x00 (0000ms, 0250ms total)
T0C1C 000:378 JLINK_WriteReg(R7, 0x00000000)  returns 0x00 (0000ms, 0250ms total)
T0C1C 000:378 JLINK_WriteReg(R8, 0x00000000)  returns 0x00 (0000ms, 0250ms total)
T0C1C 000:378 JLINK_WriteReg(R9, 0x20000254)  returns 0x00 (0000ms, 0250ms total)
T0C1C 000:378 JLINK_WriteReg(R10, 0x00000000)  returns 0x00 (0000ms, 0250ms total)
T0C1C 000:378 JLINK_WriteReg(R11, 0x00000000)  returns 0x00 (0000ms, 0250ms total)
T0C1C 000:378 JLINK_WriteReg(R12, 0x00000000)  returns 0x00 (0000ms, 0250ms total)
T0C1C 000:378 JLINK_WriteReg(R13 (SP), 0x20000800)  returns 0x00 (0000ms, 0250ms total)
T0C1C 000:378 JLINK_WriteReg(R14, 0x20000001)  returns 0x00 (0000ms, 0250ms total)
T0C1C 000:378 JLINK_WriteReg(R15 (PC), 0x200001F2)  returns 0x00 (0000ms, 0250ms total)
T0C1C 000:378 JLINK_WriteReg(XPSR, 0x01000000)  returns 0x00 (0000ms, 0250ms total)
T0C1C 000:379 JLINK_WriteReg(MSP, 0x20000800)  returns 0x00 (0000ms, 0250ms total)
T0C1C 000:379 JLINK_WriteReg(PSP, 0x20000800)  returns 0x00 (0000ms, 0250ms total)
T0C1C 000:379 JLINK_WriteReg(CFBP, 0x00000000)  returns 0x00 (0000ms, 0250ms total)
T0C1C 000:379 JLINK_SetBPEx(Addr = 0x20000000, Type = 0xFFFFFFF2)  returns 0x00000009 (0000ms, 0250ms total)
T0C1C 000:379 JLINK_Go() (0002ms, 0252ms total)
T0C1C 000:382 JLINK_IsHalted() -- CPU_ReadMem(2 bytes @ 0x20000000)  returns TRUE (0005ms, 0258ms total)
T0C1C 000:387 JLINK_ReadReg(R15 (PC))  returns 0x20000000 (0000ms, 0253ms total)
T0C1C 000:387 JLINK_ClrBPEx(BPHandle = 0x00000009)  returns 0x00 (0000ms, 0253ms total)
T0C1C 000:387 JLINK_ReadReg(R0)  returns 0x00000000 (0000ms, 0253ms total)
T0C1C 000:387 JLINK_WriteReg(R0, 0x0001A000)  returns 0x00 (0000ms, 0253ms total)
T0C1C 000:387 JLINK_WriteReg(R1, 0x00000400)  returns 0x00 (0000ms, 0253ms total)
T0C1C 000:387 JLINK_WriteReg(R2, 0x000000FF)  returns 0x00 (0000ms, 0253ms total)
T0C1C 000:387 JLINK_WriteReg(R3, 0x00000000)  returns 0x00 (0001ms, 0254ms total)
T0C1C 000:388 JLINK_WriteReg(R4, 0x00000000)  returns 0x00 (0000ms, 0254ms total)
T0C1C 000:388 JLINK_WriteReg(R5, 0x00000000)  returns 0x00 (0000ms, 0254ms total)
T0C1C 000:388 JLINK_WriteReg(R6, 0x00000000)  returns 0x00 (0000ms, 0254ms total)
T0C1C 000:388 JLINK_WriteReg(R7, 0x00000000)  returns 0x00 (0000ms, 0254ms total)
T0C1C 000:388 JLINK_WriteReg(R8, 0x00000000)  returns 0x00 (0000ms, 0254ms total)
T0C1C 000:388 JLINK_WriteReg(R9, 0x20000254)  returns 0x00 (0000ms, 0254ms total)
T0C1C 000:388 JLINK_WriteReg(R10, 0x00000000)  returns 0x00 (0000ms, 0254ms total)
T0C1C 000:388 JLINK_WriteReg(R11, 0x00000000)  returns 0x00 (0000ms, 0254ms total)
T0C1C 000:388 JLINK_WriteReg(R12, 0x00000000)  returns 0x00 (0000ms, 0254ms total)
T0C1C 000:388 JLINK_WriteReg(R13 (SP), 0x20000800)  returns 0x00 (0000ms, 0254ms total)
T0C1C 000:388 JLINK_WriteReg(R14, 0x20000001)  returns 0x00 (0000ms, 0254ms total)
T0C1C 000:388 JLINK_WriteReg(R15 (PC), 0x200001F2)  returns 0x00 (0000ms, 0254ms total)
T0C1C 000:388 JLINK_WriteReg(XPSR, 0x01000000)  returns 0x00 (0000ms, 0254ms total)
T0C1C 000:388 JLINK_WriteReg(MSP, 0x20000800)  returns 0x00 (0000ms, 0254ms total)
T0C1C 000:388 JLINK_WriteReg(PSP, 0x20000800)  returns 0x00 (0000ms, 0254ms total)
T0C1C 000:388 JLINK_WriteReg(CFBP, 0x00000000)  returns 0x00 (0001ms, 0255ms total)
T0C1C 000:389 JLINK_SetBPEx(Addr = 0x20000000, Type = 0xFFFFFFF2)  returns 0x0000000A (0000ms, 0255ms total)
T0C1C 000:389 JLINK_Go() (0003ms, 0258ms total)
T0C1C 000:392 JLINK_IsHalted() -- CPU_ReadMem(2 bytes @ 0x20000000)  returns TRUE (0005ms, 0263ms total)
T0C1C 000:397 JLINK_ReadReg(R15 (PC))  returns 0x20000000 (0000ms, 0258ms total)
T0C1C 000:397 JLINK_ClrBPEx(BPHandle = 0x0000000A)  returns 0x00 (0000ms, 0258ms total)
T0C1C 000:397 JLINK_ReadReg(R0)  returns 0x00000000 (0000ms, 0258ms total)
T0C1C 000:398 JLINK_WriteReg(R0, 0x0001A400)  returns 0x00 (0000ms, 0258ms total)
T0C1C 000:398 JLINK_WriteReg(R1, 0x00000400)  returns 0x00 (0000ms, 0258ms total)
T0C1C 000:398 JLINK_WriteReg(R2, 0x000000FF)  returns 0x00 (0000ms, 0258ms total)
T0C1C 000:398 JLINK_WriteReg(R3, 0x00000000)  returns 0x00 (0000ms, 0258ms total)
T0C1C 000:398 JLINK_WriteReg(R4, 0x00000000)  returns 0x00 (0000ms, 0258ms total)
T0C1C 000:398 JLINK_WriteReg(R5, 0x00000000)  returns 0x00 (0000ms, 0258ms total)
T0C1C 000:398 JLINK_WriteReg(R6, 0x00000000)  returns 0x00 (0000ms, 0258ms total)
T0C1C 000:398 JLINK_WriteReg(R7, 0x00000000)  returns 0x00 (0000ms, 0258ms total)
T0C1C 000:398 JLINK_WriteReg(R8, 0x00000000)  returns 0x00 (0000ms, 0258ms total)
T0C1C 000:398 JLINK_WriteReg(R9, 0x20000254)  returns 0x00 (0000ms, 0258ms total)
T0C1C 000:398 JLINK_WriteReg(R10, 0x00000000)  returns 0x00 (0000ms, 0258ms total)
T0C1C 000:399 JLINK_WriteReg(R11, 0x00000000)  returns 0x00 (0000ms, 0259ms total)
T0C1C 000:399 JLINK_WriteReg(R12, 0x00000000)  returns 0x00 (0000ms, 0259ms total)
T0C1C 000:399 JLINK_WriteReg(R13 (SP), 0x20000800)  returns 0x00 (0000ms, 0259ms total)
T0C1C 000:399 JLINK_WriteReg(R14, 0x20000001)  returns 0x00 (0000ms, 0259ms total)
T0C1C 000:399 JLINK_WriteReg(R15 (PC), 0x200001F2)  returns 0x00 (0000ms, 0259ms total)
T0C1C 000:399 JLINK_WriteReg(XPSR, 0x01000000)  returns 0x00 (0000ms, 0259ms total)
T0C1C 000:399 JLINK_WriteReg(MSP, 0x20000800)  returns 0x00 (0000ms, 0259ms total)
T0C1C 000:399 JLINK_WriteReg(PSP, 0x20000800)  returns 0x00 (0000ms, 0259ms total)
T0C1C 000:399 JLINK_WriteReg(CFBP, 0x00000000)  returns 0x00 (0000ms, 0259ms total)
T0C1C 000:399 JLINK_SetBPEx(Addr = 0x20000000, Type = 0xFFFFFFF2)  returns 0x0000000B (0000ms, 0259ms total)
T0C1C 000:399 JLINK_Go() (0003ms, 0262ms total)
T0C1C 000:402 JLINK_IsHalted() -- CPU_ReadMem(2 bytes @ 0x20000000)  returns TRUE (0005ms, 0267ms total)
T0C1C 000:407 JLINK_ReadReg(R15 (PC))  returns 0x20000000 (0001ms, 0263ms total)
T0C1C 000:408 JLINK_ClrBPEx(BPHandle = 0x0000000B)  returns 0x00 (0000ms, 0263ms total)
T0C1C 000:408 JLINK_ReadReg(R0)  returns 0x00000000 (0000ms, 0263ms total)
T0C1C 000:408 JLINK_WriteReg(R0, 0x0001A800)  returns 0x00 (0000ms, 0263ms total)
T0C1C 000:408 JLINK_WriteReg(R1, 0x00000400)  returns 0x00 (0000ms, 0263ms total)
T0C1C 000:408 JLINK_WriteReg(R2, 0x000000FF)  returns 0x00 (0000ms, 0263ms total)
T0C1C 000:408 JLINK_WriteReg(R3, 0x00000000)  returns 0x00 (0000ms, 0263ms total)
T0C1C 000:408 JLINK_WriteReg(R4, 0x00000000)  returns 0x00 (0000ms, 0263ms total)
T0C1C 000:408 JLINK_WriteReg(R5, 0x00000000)  returns 0x00 (0000ms, 0263ms total)
T0C1C 000:409 JLINK_WriteReg(R6, 0x00000000)  returns 0x00 (0000ms, 0264ms total)
T0C1C 000:409 JLINK_WriteReg(R7, 0x00000000)  returns 0x00 (0000ms, 0264ms total)
T0C1C 000:409 JLINK_WriteReg(R8, 0x00000000)  returns 0x00 (0000ms, 0264ms total)
T0C1C 000:409 JLINK_WriteReg(R9, 0x20000254)  returns 0x00 (0000ms, 0264ms total)
T0C1C 000:409 JLINK_WriteReg(R10, 0x00000000)  returns 0x00 (0000ms, 0264ms total)
T0C1C 000:409 JLINK_WriteReg(R11, 0x00000000)  returns 0x00 (0000ms, 0264ms total)
T0C1C 000:409 JLINK_WriteReg(R12, 0x00000000)  returns 0x00 (0000ms, 0264ms total)
T0C1C 000:409 JLINK_WriteReg(R13 (SP), 0x20000800)  returns 0x00 (0000ms, 0264ms total)
T0C1C 000:409 JLINK_WriteReg(R14, 0x20000001)  returns 0x00 (0000ms, 0264ms total)
T0C1C 000:409 JLINK_WriteReg(R15 (PC), 0x200001F2)  returns 0x00 (0000ms, 0264ms total)
T0C1C 000:409 JLINK_WriteReg(XPSR, 0x01000000)  returns 0x00 (0000ms, 0264ms total)
T0C1C 000:409 JLINK_WriteReg(MSP, 0x20000800)  returns 0x00 (0000ms, 0264ms total)
T0C1C 000:409 JLINK_WriteReg(PSP, 0x20000800)  returns 0x00 (0000ms, 0264ms total)
T0C1C 000:409 JLINK_WriteReg(CFBP, 0x00000000)  returns 0x00 (0000ms, 0264ms total)
T0C1C 000:409 JLINK_SetBPEx(Addr = 0x20000000, Type = 0xFFFFFFF2)  returns 0x0000000C (0000ms, 0264ms total)
T0C1C 000:409 JLINK_Go() (0004ms, 0268ms total)
T0C1C 000:413 JLINK_IsHalted() -- CPU_ReadMem(2 bytes @ 0x20000000)  returns TRUE (0005ms, 0273ms total)
T0C1C 000:418 JLINK_ReadReg(R15 (PC))  returns 0x20000000 (0000ms, 0268ms total)
T0C1C 000:418 JLINK_ClrBPEx(BPHandle = 0x0000000C)  returns 0x00 (0000ms, 0268ms total)
T0C1C 000:418 JLINK_ReadReg(R0)  returns 0x00000000 (0000ms, 0268ms total)
T0C1C 000:418 JLINK_WriteReg(R0, 0x0001AC00)  returns 0x00 (0000ms, 0268ms total)
T0C1C 000:418 JLINK_WriteReg(R1, 0x00000400)  returns 0x00 (0000ms, 0268ms total)
T0C1C 000:418 JLINK_WriteReg(R2, 0x000000FF)  returns 0x00 (0001ms, 0269ms total)
T0C1C 000:419 JLINK_WriteReg(R3, 0x00000000)  returns 0x00 (0000ms, 0269ms total)
T0C1C 000:419 JLINK_WriteReg(R4, 0x00000000)  returns 0x00 (0000ms, 0269ms total)
T0C1C 000:419 JLINK_WriteReg(R5, 0x00000000)  returns 0x00 (0000ms, 0269ms total)
T0C1C 000:419 JLINK_WriteReg(R6, 0x00000000)  returns 0x00 (0000ms, 0269ms total)
T0C1C 000:419 JLINK_WriteReg(R7, 0x00000000)  returns 0x00 (0000ms, 0269ms total)
T0C1C 000:419 JLINK_WriteReg(R8, 0x00000000)  returns 0x00 (0000ms, 0269ms total)
T0C1C 000:419 JLINK_WriteReg(R9, 0x20000254)  returns 0x00 (0000ms, 0269ms total)
T0C1C 000:419 JLINK_WriteReg(R10, 0x00000000)  returns 0x00 (0000ms, 0269ms total)
T0C1C 000:419 JLINK_WriteReg(R11, 0x00000000)  returns 0x00 (0000ms, 0269ms total)
T0C1C 000:419 JLINK_WriteReg(R12, 0x00000000)  returns 0x00 (0000ms, 0269ms total)
T0C1C 000:419 JLINK_WriteReg(R13 (SP), 0x20000800)  returns 0x00 (0000ms, 0269ms total)
T0C1C 000:419 JLINK_WriteReg(R14, 0x20000001)  returns 0x00 (0000ms, 0269ms total)
T0C1C 000:419 JLINK_WriteReg(R15 (PC), 0x200001F2)  returns 0x00 (0000ms, 0269ms total)
T0C1C 000:419 JLINK_WriteReg(XPSR, 0x01000000)  returns 0x00 (0000ms, 0269ms total)
T0C1C 000:419 JLINK_WriteReg(MSP, 0x20000800)  returns 0x00 (0000ms, 0269ms total)
T0C1C 000:419 JLINK_WriteReg(PSP, 0x20000800)  returns 0x00 (0001ms, 0270ms total)
T0C1C 000:420 JLINK_WriteReg(CFBP, 0x00000000)  returns 0x00 (0000ms, 0270ms total)
T0C1C 000:420 JLINK_SetBPEx(Addr = 0x20000000, Type = 0xFFFFFFF2)  returns 0x0000000D (0000ms, 0270ms total)
T0C1C 000:420 JLINK_Go() (0003ms, 0273ms total)
T0C1C 000:423 JLINK_IsHalted() -- CPU_ReadMem(2 bytes @ 0x20000000)  returns TRUE (0005ms, 0278ms total)
T0C1C 000:428 JLINK_ReadReg(R15 (PC))  returns 0x20000000 (0000ms, 0273ms total)
T0C1C 000:428 JLINK_ClrBPEx(BPHandle = 0x0000000D)  returns 0x00 (0000ms, 0273ms total)
T0C1C 000:428 JLINK_ReadReg(R0)  returns 0x00000000 (0000ms, 0273ms total)
T0C1C 000:429 JLINK_WriteReg(R0, 0x0001B000)  returns 0x00 (0000ms, 0273ms total)
T0C1C 000:429 JLINK_WriteReg(R1, 0x00000400)  returns 0x00 (0000ms, 0273ms total)
T0C1C 000:429 JLINK_WriteReg(R2, 0x000000FF)  returns 0x00 (0000ms, 0273ms total)
T0C1C 000:429 JLINK_WriteReg(R3, 0x00000000)  returns 0x00 (0000ms, 0273ms total)
T0C1C 000:429 JLINK_WriteReg(R4, 0x00000000)  returns 0x00 (0000ms, 0273ms total)
T0C1C 000:429 JLINK_WriteReg(R5, 0x00000000)  returns 0x00 (0000ms, 0273ms total)
T0C1C 000:429 JLINK_WriteReg(R6, 0x00000000)  returns 0x00 (0000ms, 0273ms total)
T0C1C 000:429 JLINK_WriteReg(R7, 0x00000000)  returns 0x00 (0000ms, 0273ms total)
T0C1C 000:429 JLINK_WriteReg(R8, 0x00000000)  returns 0x00 (0000ms, 0273ms total)
T0C1C 000:429 JLINK_WriteReg(R9, 0x20000254)  returns 0x00 (0000ms, 0273ms total)
T0C1C 000:429 JLINK_WriteReg(R10, 0x00000000)  returns 0x00 (0000ms, 0273ms total)
T0C1C 000:429 JLINK_WriteReg(R11, 0x00000000)  returns 0x00 (0000ms, 0273ms total)
T0C1C 000:429 JLINK_WriteReg(R12, 0x00000000)  returns 0x00 (0000ms, 0273ms total)
T0C1C 000:429 JLINK_WriteReg(R13 (SP), 0x20000800)  returns 0x00 (0001ms, 0274ms total)
T0C1C 000:430 JLINK_WriteReg(R14, 0x20000001)  returns 0x00 (0000ms, 0274ms total)
T0C1C 000:430 JLINK_WriteReg(R15 (PC), 0x200001F2)  returns 0x00 (0000ms, 0274ms total)
T0C1C 000:430 JLINK_WriteReg(XPSR, 0x01000000)  returns 0x00 (0000ms, 0274ms total)
T0C1C 000:430 JLINK_WriteReg(MSP, 0x20000800)  returns 0x00 (0000ms, 0274ms total)
T0C1C 000:430 JLINK_WriteReg(PSP, 0x20000800)  returns 0x00 (0000ms, 0274ms total)
T0C1C 000:430 JLINK_WriteReg(CFBP, 0x00000000)  returns 0x00 (0000ms, 0274ms total)
T0C1C 000:430 JLINK_SetBPEx(Addr = 0x20000000, Type = 0xFFFFFFF2)  returns 0x0000000E (0000ms, 0274ms total)
T0C1C 000:430 JLINK_Go() (0003ms, 0277ms total)
T0C1C 000:433 JLINK_IsHalted() -- CPU_ReadMem(2 bytes @ 0x20000000)  returns TRUE (0005ms, 0282ms total)
T0C1C 000:438 JLINK_ReadReg(R15 (PC))  returns 0x20000000 (0000ms, 0277ms total)
T0C1C 000:438 JLINK_ClrBPEx(BPHandle = 0x0000000E)  returns 0x00 (0001ms, 0278ms total)
T0C1C 000:439 JLINK_ReadReg(R0)  returns 0x00000000 (0000ms, 0278ms total)
T0C1C 000:439 JLINK_WriteReg(R0, 0x00000001)  returns 0x00 (0000ms, 0278ms total)
T0C1C 000:439 JLINK_WriteReg(R1, 0x00000400)  returns 0x00 (0000ms, 0278ms total)
T0C1C 000:439 JLINK_WriteReg(R2, 0x000000FF)  returns 0x00 (0000ms, 0278ms total)
T0C1C 000:439 JLINK_WriteReg(R3, 0x00000000)  returns 0x00 (0000ms, 0278ms total)
T0C1C 000:439 JLINK_WriteReg(R4, 0x00000000)  returns 0x00 (0000ms, 0278ms total)
T0C1C 000:439 JLINK_WriteReg(R5, 0x00000000)  returns 0x00 (0000ms, 0278ms total)
T0C1C 000:439 JLINK_WriteReg(R6, 0x00000000)  returns 0x00 (0000ms, 0278ms total)
T0C1C 000:439 JLINK_WriteReg(R7, 0x00000000)  returns 0x00 (0001ms, 0279ms total)
T0C1C 000:440 JLINK_WriteReg(R8, 0x00000000)  returns 0x00 (0000ms, 0279ms total)
T0C1C 000:440 JLINK_WriteReg(R9, 0x20000254)  returns 0x00 (0000ms, 0279ms total)
T0C1C 000:440 JLINK_WriteReg(R10, 0x00000000)  returns 0x00 (0000ms, 0279ms total)
T0C1C 000:440 JLINK_WriteReg(R11, 0x00000000)  returns 0x00 (0000ms, 0279ms total)
T0C1C 000:440 JLINK_WriteReg(R12, 0x00000000)  returns 0x00 (0000ms, 0279ms total)
T0C1C 000:440 JLINK_WriteReg(R13 (SP), 0x20000800)  returns 0x00 (0000ms, 0279ms total)
T0C1C 000:440 JLINK_WriteReg(R14, 0x20000001)  returns 0x00 (0000ms, 0279ms total)
T0C1C 000:440 JLINK_WriteReg(R15 (PC), 0x20000062)  returns 0x00 (0000ms, 0279ms total)
T0C1C 000:440 JLINK_WriteReg(XPSR, 0x01000000)  returns 0x00 (0000ms, 0279ms total)
T0C1C 000:440 JLINK_WriteReg(MSP, 0x20000800)  returns 0x00 (0000ms, 0279ms total)
T0C1C 000:440 JLINK_WriteReg(PSP, 0x20000800)  returns 0x00 (0000ms, 0279ms total)
T0C1C 000:440 JLINK_WriteReg(CFBP, 0x00000000)  returns 0x00 (0000ms, 0279ms total)
T0C1C 000:440 JLINK_SetBPEx(Addr = 0x20000000, Type = 0xFFFFFFF2)  returns 0x0000000F (0000ms, 0279ms total)
T0C1C 000:440 JLINK_Go() (0004ms, 0283ms total)
T0C1C 000:444 JLINK_IsHalted() -- CPU_ReadMem(2 bytes @ 0x20000000)  returns TRUE (0005ms, 0288ms total)
T0C1C 000:449 JLINK_ReadReg(R15 (PC))  returns 0x20000000 (0000ms, 0283ms total)
T0C1C 000:449 JLINK_ClrBPEx(BPHandle = 0x0000000F)  returns 0x00 (0000ms, 0283ms total)
T0C1C 000:449 JLINK_ReadReg(R0)  returns 0x00000000 (0000ms, 0283ms total)
T0C1C 000:514 JLINK_WriteMem(0x20000000, 0x0258 Bytes, ...) -- Data:  00 BE 0A E0 0D 78 2D 06 68 40 08 24 40 00 00 D3 ... -- CPU_WriteMem(600 bytes @ 0x20000000)  returns 0x258 (0010ms, 0293ms total)
T0C1C 000:524 JLINK_WriteReg(R0, 0x00000000)  returns 0x00 (0000ms, 0293ms total)
T0C1C 000:524 JLINK_WriteReg(R1, 0x00F42400)  returns 0x00 (0000ms, 0293ms total)
T0C1C 000:524 JLINK_WriteReg(R2, 0x00000002)  returns 0x00 (0001ms, 0294ms total)
T0C1C 000:525 JLINK_WriteReg(R3, 0x00000000)  returns 0x00 (0000ms, 0294ms total)
T0C1C 000:525 JLINK_WriteReg(R4, 0x00000000)  returns 0x00 (0000ms, 0294ms total)
T0C1C 000:525 JLINK_WriteReg(R5, 0x00000000)  returns 0x00 (0000ms, 0294ms total)
T0C1C 000:525 JLINK_WriteReg(R6, 0x00000000)  returns 0x00 (0000ms, 0294ms total)
T0C1C 000:525 JLINK_WriteReg(R7, 0x00000000)  returns 0x00 (0000ms, 0294ms total)
T0C1C 000:525 JLINK_WriteReg(R8, 0x00000000)  returns 0x00 (0000ms, 0294ms total)
T0C1C 000:525 JLINK_WriteReg(R9, 0x20000254)  returns 0x00 (0001ms, 0295ms total)
T0C1C 000:526 JLINK_WriteReg(R10, 0x00000000)  returns 0x00 (0000ms, 0295ms total)
T0C1C 000:526 JLINK_WriteReg(R11, 0x00000000)  returns 0x00 (0000ms, 0295ms total)
T0C1C 000:526 JLINK_WriteReg(R12, 0x00000000)  returns 0x00 (0000ms, 0295ms total)
T0C1C 000:526 JLINK_WriteReg(R13 (SP), 0x20000800)  returns 0x00 (0000ms, 0295ms total)
T0C1C 000:526 JLINK_WriteReg(R14, 0x20000001)  returns 0x00 (0000ms, 0295ms total)
T0C1C 000:526 JLINK_WriteReg(R15 (PC), 0x20000028)  returns 0x00 (0001ms, 0296ms total)
T0C1C 000:527 JLINK_WriteReg(XPSR, 0x01000000)  returns 0x00 (0000ms, 0296ms total)
T0C1C 000:527 JLINK_WriteReg(MSP, 0x20000800)  returns 0x00 (0000ms, 0296ms total)
T0C1C 000:527 JLINK_WriteReg(PSP, 0x20000800)  returns 0x00 (0000ms, 0296ms total)
T0C1C 000:527 JLINK_WriteReg(CFBP, 0x00000000)  returns 0x00 (0000ms, 0296ms total)
T0C1C 000:527 JLINK_SetBPEx(Addr = 0x20000000, Type = 0xFFFFFFF2) -- CPU_ReadMem(4 bytes @ 0x20000000) -- CPU_WriteMem(4 bytes @ 0x20000000) -- CPU_ReadMem(4 bytes @ 0x20000000) -- CPU_WriteMem(4 bytes @ 0x20000000) -- CPU_ReadMem(2 bytes @ 0x20000000)  returns 0x00000010 (0006ms, 0302ms total)
T0C1C 000:533 JLINK_Go() -- CPU_WriteMem(2 bytes @ 0x20000000) (0003ms, 0305ms total)
T0C1C 000:536 JLINK_IsHalted() -- CPU_ReadMem(2 bytes @ 0x20000000)  returns TRUE (0005ms, 0310ms total)
T0C1C 000:541 JLINK_ReadReg(R15 (PC))  returns 0x20000000 (0001ms, 0306ms total)
T0C1C 000:542 JLINK_ClrBPEx(BPHandle = 0x00000010)  returns 0x00 (0000ms, 0306ms total)
T0C1C 000:542 JLINK_ReadReg(R0)  returns 0x00000000 (0000ms, 0306ms total)
T0C1C 000:542 JLINK_WriteMem(0x20000258, 0x01A8 Bytes, ...) -- Data:  40 30 00 20 F5 80 01 00 0F 81 01 00 11 81 01 00 ... -- CPU_WriteMem(424 bytes @ 0x20000258)  returns 0x1A8 (0006ms, 0312ms total)
T0C1C 000:548 JLINK_WriteMem(0x20000400, 0x0258 Bytes, ...) -- Data:  20 46 E3 68 07 C8 2B 43 98 47 10 34 B4 42 F7 D3 ... -- CPU_WriteMem(600 bytes @ 0x20000400)  returns 0x258 (0008ms, 0320ms total)
T0C1C 000:557 JLINK_WriteReg(R0, 0x00018000)  returns 0x00 (0000ms, 0321ms total)
T0C1C 000:557 JLINK_WriteReg(R1, 0x00000400)  returns 0x00 (0000ms, 0321ms total)
T0C1C 000:557 JLINK_WriteReg(R2, 0x20000258)  returns 0x00 (0000ms, 0321ms total)
T0C1C 000:557 JLINK_WriteReg(R3, 0x00000000)  returns 0x00 (0000ms, 0321ms total)
T0C1C 000:557 JLINK_WriteReg(R4, 0x00000000)  returns 0x00 (0000ms, 0321ms total)
T0C1C 000:557 JLINK_WriteReg(R5, 0x00000000)  returns 0x00 (0000ms, 0321ms total)
T0C1C 000:557 JLINK_WriteReg(R6, 0x00000000)  returns 0x00 (0000ms, 0321ms total)
T0C1C 000:557 JLINK_WriteReg(R7, 0x00000000)  returns 0x00 (0000ms, 0321ms total)
T0C1C 000:557 JLINK_WriteReg(R8, 0x00000000)  returns 0x00 (0000ms, 0321ms total)
T0C1C 000:557 JLINK_WriteReg(R9, 0x20000254)  returns 0x00 (0000ms, 0321ms total)
T0C1C 000:557 JLINK_WriteReg(R10, 0x00000000)  returns 0x00 (0000ms, 0321ms total)
T0C1C 000:557 JLINK_WriteReg(R11, 0x00000000)  returns 0x00 (0000ms, 0321ms total)
T0C1C 000:557 JLINK_WriteReg(R12, 0x00000000)  returns 0x00 (0000ms, 0321ms total)
T0C1C 000:557 JLINK_WriteReg(R13 (SP), 0x20000800)  returns 0x00 (0001ms, 0322ms total)
T0C1C 000:558 JLINK_WriteReg(R14, 0x20000001)  returns 0x00 (0000ms, 0322ms total)
T0C1C 000:558 JLINK_WriteReg(R15 (PC), 0x20000130)  returns 0x00 (0000ms, 0322ms total)
T0C1C 000:558 JLINK_WriteReg(XPSR, 0x01000000)  returns 0x00 (0000ms, 0322ms total)
T0C1C 000:558 JLINK_WriteReg(MSP, 0x20000800)  returns 0x00 (0000ms, 0322ms total)
T0C1C 000:558 JLINK_WriteReg(PSP, 0x20000800)  returns 0x00 (0000ms, 0322ms total)
T0C1C 000:558 JLINK_WriteReg(CFBP, 0x00000000)  returns 0x00 (0000ms, 0322ms total)
T0C1C 000:558 JLINK_SetBPEx(Addr = 0x20000000, Type = 0xFFFFFFF2)  returns 0x00000011 (0000ms, 0322ms total)
T0C1C 000:558 JLINK_Go() (0003ms, 0325ms total)
T0C1C 000:561 JLINK_IsHalted()  returns FALSE (0001ms, 0326ms total)
T0C1C 000:590 JLINK_IsHalted() -- CPU_ReadMem(2 bytes @ 0x20000000)  returns TRUE (0005ms, 0330ms total)
T0C1C 000:595 JLINK_ReadReg(R15 (PC))  returns 0x20000000 (0000ms, 0325ms total)
T0C1C 000:595 JLINK_ClrBPEx(BPHandle = 0x00000011)  returns 0x00 (0000ms, 0325ms total)
T0C1C 000:595 JLINK_ReadReg(R0)  returns 0x00000000 (0000ms, 0325ms total)
T0C1C 000:596 JLINK_WriteMem(0x20000258, 0x01A8 Bytes, ...) -- Data:  08 72 E0 68 01 90 E6 74 62 68 68 46 21 68 90 47 ... -- CPU_WriteMem(424 bytes @ 0x20000258)  returns 0x1A8 (0006ms, 0331ms total)
T0C1C 000:602 JLINK_WriteMem(0x20000400, 0x0258 Bytes, ...) -- Data:  8C 42 FC DB 30 5D 00 28 F9 D1 3F 19 04 E0 30 78 ... -- CPU_WriteMem(600 bytes @ 0x20000400)  returns 0x258 (0008ms, 0339ms total)
T0C1C 000:611 JLINK_WriteReg(R0, 0x00018400)  returns 0x00 (0000ms, 0339ms total)
T0C1C 000:611 JLINK_WriteReg(R1, 0x00000400)  returns 0x00 (0000ms, 0339ms total)
T0C1C 000:611 JLINK_WriteReg(R2, 0x20000258)  returns 0x00 (0000ms, 0339ms total)
T0C1C 000:611 JLINK_WriteReg(R3, 0x00000000)  returns 0x00 (0000ms, 0339ms total)
T0C1C 000:611 JLINK_WriteReg(R4, 0x00000000)  returns 0x00 (0000ms, 0339ms total)
T0C1C 000:611 JLINK_WriteReg(R5, 0x00000000)  returns 0x00 (0000ms, 0339ms total)
T0C1C 000:611 JLINK_WriteReg(R6, 0x00000000)  returns 0x00 (0000ms, 0339ms total)
T0C1C 000:611 JLINK_WriteReg(R7, 0x00000000)  returns 0x00 (0000ms, 0339ms total)
T0C1C 000:611 JLINK_WriteReg(R8, 0x00000000)  returns 0x00 (0000ms, 0339ms total)
T0C1C 000:611 JLINK_WriteReg(R9, 0x20000254)  returns 0x00 (0000ms, 0339ms total)
T0C1C 000:611 JLINK_WriteReg(R10, 0x00000000)  returns 0x00 (0000ms, 0339ms total)
T0C1C 000:611 JLINK_WriteReg(R11, 0x00000000)  returns 0x00 (0000ms, 0339ms total)
T0C1C 000:611 JLINK_WriteReg(R12, 0x00000000)  returns 0x00 (0000ms, 0339ms total)
T0C1C 000:611 JLINK_WriteReg(R13 (SP), 0x20000800)  returns 0x00 (0000ms, 0339ms total)
T0C1C 000:611 JLINK_WriteReg(R14, 0x20000001)  returns 0x00 (0000ms, 0339ms total)
T0C1C 000:611 JLINK_WriteReg(R15 (PC), 0x20000130)  returns 0x00 (0000ms, 0339ms total)
T0C1C 000:611 JLINK_WriteReg(XPSR, 0x01000000)  returns 0x00 (0000ms, 0339ms total)
T0C1C 000:611 JLINK_WriteReg(MSP, 0x20000800)  returns 0x00 (0000ms, 0339ms total)
T0C1C 000:611 JLINK_WriteReg(PSP, 0x20000800)  returns 0x00 (0001ms, 0340ms total)
T0C1C 000:612 JLINK_WriteReg(CFBP, 0x00000000)  returns 0x00 (0000ms, 0340ms total)
T0C1C 000:612 JLINK_SetBPEx(Addr = 0x20000000, Type = 0xFFFFFFF2)  returns 0x00000012 (0000ms, 0340ms total)
T0C1C 000:612 JLINK_Go() (0003ms, 0343ms total)
T0C1C 000:615 JLINK_IsHalted()  returns FALSE (0001ms, 0344ms total)
T0C1C 000:617 JLINK_IsHalted()  returns FALSE (0001ms, 0344ms total)
T0C1C 000:619 JLINK_IsHalted()  returns FALSE (0000ms, 0343ms total)
T0C1C 000:620 JLINK_IsHalted()  returns FALSE (0001ms, 0344ms total)
T0C1C 000:628 JLINK_IsHalted() -- CPU_ReadMem(2 bytes @ 0x20000000)  returns TRUE (0006ms, 0349ms total)
T0C1C 000:634 JLINK_ReadReg(R15 (PC))  returns 0x20000000 (0000ms, 0343ms total)
T0C1C 000:634 JLINK_ClrBPEx(BPHandle = 0x00000012)  returns 0x00 (0000ms, 0343ms total)
T0C1C 000:634 JLINK_ReadReg(R0)  returns 0x00000000 (0000ms, 0343ms total)
T0C1C 000:634 JLINK_WriteMem(0x20000258, 0x01A8 Bytes, ...) -- Data:  01 20 00 F0 61 FE 00 28 01 D0 07 28 09 D1 00 21 ... -- CPU_WriteMem(424 bytes @ 0x20000258)  returns 0x1A8 (0006ms, 0349ms total)
T0C1C 000:640 JLINK_WriteMem(0x20000400, 0x0258 Bytes, ...) -- Data:  09 4B 9B 68 00 2B 07 D0 00 2A 07 D0 00 28 05 D0 ... -- CPU_WriteMem(600 bytes @ 0x20000400)  returns 0x258 (0009ms, 0358ms total)
T0C1C 000:649 JLINK_WriteReg(R0, 0x00018800)  returns 0x00 (0000ms, 0358ms total)
T0C1C 000:649 JLINK_WriteReg(R1, 0x00000400)  returns 0x00 (0000ms, 0358ms total)
T0C1C 000:649 JLINK_WriteReg(R2, 0x20000258)  returns 0x00 (0000ms, 0358ms total)
T0C1C 000:649 JLINK_WriteReg(R3, 0x00000000)  returns 0x00 (0000ms, 0358ms total)
T0C1C 000:649 JLINK_WriteReg(R4, 0x00000000)  returns 0x00 (0000ms, 0358ms total)
T0C1C 000:649 JLINK_WriteReg(R5, 0x00000000)  returns 0x00 (0000ms, 0358ms total)
T0C1C 000:649 JLINK_WriteReg(R6, 0x00000000)  returns 0x00 (0000ms, 0358ms total)
T0C1C 000:649 JLINK_WriteReg(R7, 0x00000000)  returns 0x00 (0000ms, 0358ms total)
T0C1C 000:649 JLINK_WriteReg(R8, 0x00000000)  returns 0x00 (0000ms, 0358ms total)
T0C1C 000:649 JLINK_WriteReg(R9, 0x20000254)  returns 0x00 (0000ms, 0358ms total)
T0C1C 000:649 JLINK_WriteReg(R10, 0x00000000)  returns 0x00 (0000ms, 0358ms total)
T0C1C 000:649 JLINK_WriteReg(R11, 0x00000000)  returns 0x00 (0000ms, 0358ms total)
T0C1C 000:649 JLINK_WriteReg(R12, 0x00000000)  returns 0x00 (0000ms, 0358ms total)
T0C1C 000:649 JLINK_WriteReg(R13 (SP), 0x20000800)  returns 0x00 (0000ms, 0358ms total)
T0C1C 000:649 JLINK_WriteReg(R14, 0x20000001)  returns 0x00 (0000ms, 0358ms total)
T0C1C 000:649 JLINK_WriteReg(R15 (PC), 0x20000130)  returns 0x00 (0000ms, 0358ms total)
T0C1C 000:649 JLINK_WriteReg(XPSR, 0x01000000)  returns 0x00 (0000ms, 0358ms total)
T0C1C 000:649 JLINK_WriteReg(MSP, 0x20000800)  returns 0x00 (0000ms, 0358ms total)
T0C1C 000:650 JLINK_WriteReg(PSP, 0x20000800)  returns 0x00 (0000ms, 0358ms total)
T0C1C 000:650 JLINK_WriteReg(CFBP, 0x00000000)  returns 0x00 (0000ms, 0358ms total)
T0C1C 000:650 JLINK_SetBPEx(Addr = 0x20000000, Type = 0xFFFFFFF2)  returns 0x00000013 (0000ms, 0358ms total)
T0C1C 000:650 JLINK_Go() (0003ms, 0361ms total)
T0C1C 000:653 JLINK_IsHalted()  returns FALSE (0001ms, 0362ms total)
T0C1C 000:655 JLINK_IsHalted()  returns FALSE (0001ms, 0362ms total)
T0C1C 000:657 JLINK_IsHalted()  returns FALSE (0001ms, 0362ms total)
